# GHz S RI R 50
! S-Parameters data
! Freq   reS11   imS11   reS21   imS21   reS12   imS12   reS22   imS22
2.2910000000                    -0.8151521562           0.4127935833           0.0076171466          -0.0076221504           0.0076171466          -0.0076221504          -0.8530682932           0.3256421009
2.2940000000                    -0.8079640726           0.4325322647           0.0065987532          -0.0072018998           0.0065987532          -0.0072018998          -0.8464140740           0.3456379016
2.2970000000                    -0.7955799314           0.4515895103           0.0056626389          -0.0063022616           0.0056626389          -0.0063022616          -0.8352657749           0.3650603862
2.3000000000                    -0.7799449959           0.4684027236           0.0050506926          -0.0052233778           0.0050506926          -0.0052233778          -0.8209289509           0.3826303810
2.3030000000                    -0.7614990709           0.4821992094           0.0047285139          -0.0041411869           0.0047285139          -0.0041411869          -0.8033871377           0.3968201450
2.3060000000                    -0.7427944061           0.4889219610           0.0046327171          -0.0031750313           0.0046327171          -0.0031750313          -0.7869294090           0.4027309413
2.3090000000                    -0.7333083864           0.4893150978           0.0048040801          -0.0025807779           0.0048040801          -0.0025807779          -0.7818555694           0.4045352684
2.3120000000                    -0.7378748031           0.5026435713           0.0045146649          -0.0025051980           0.0045146649          -0.0025051980          -0.7865300953           0.4220186247
2.3150000000                    -0.7312095468           0.5300273139           0.0039947102          -0.0021090844           0.0039947102          -0.0021090844          -0.7791029038           0.4506562119
2.3180000000                    -0.7151587204           0.5569949804           0.0035804018          -0.0021023084           0.0035804018          -0.0021023084          -0.7640401218           0.4785946728
2.3210000000                    -0.6927443183           0.5824428735           0.0025731870          -0.0018674030           0.0025731870          -0.0018674030          -0.7418751044           0.5057740703
2.3240000000                    -0.6603339755           0.6039418398           0.0016163789          -0.0013457244           0.0016163789          -0.0013457244          -0.7082497257           0.5269862787
2.3270000000                    -0.6293705346           0.6053313934           0.0011407573          -0.0006082432           0.0011407573          -0.0006082432          -0.6836256793           0.5249070447
2.3300000000                    -0.6206075591           0.6170771675           0.0007320806          -0.0007292899           0.0007320806          -0.0007292899          -0.6782126033           0.5426701707
2.3330000000                    -0.6034301134           0.6416492579          -0.0000228502          -0.0010153298          -0.0000228502          -0.0010153298          -0.6605296231           0.5714571221
2.3360000000                    -0.5773743309           0.6687244798          -0.0009180578          -0.0016362744          -0.0009180578          -0.0016362744          -0.6346617535           0.6017811253
2.3390000000                    -0.5443435650           0.6970363657          -0.0020809212          -0.0026079678          -0.0020809212          -0.0026079678          -0.6003531022           0.6336497483
2.3420000000                    -0.5026272458           0.7224737467          -0.0036950576          -0.0039727063          -0.0036950576          -0.0039727063          -0.5571912883           0.6609676577
2.3450000000                    -0.4570796432           0.7463990426          -0.0056567916          -0.0058587976          -0.0056567916          -0.0058587976          -0.5087520305           0.6887521903
2.3480000000                    -0.4028540716           0.7700832008          -0.0084195719          -0.0084749459          -0.0084195719          -0.0084749459          -0.4485186887           0.7153742592
2.3510000000                    -0.3379627014           0.7877236242          -0.0121376554          -0.0112525629          -0.0121376554          -0.0112525629          -0.3784287547           0.7314449330
2.3540000000                    -0.2659200812           0.8032660779          -0.0163404151          -0.0149910043          -0.0163404151          -0.0149910043          -0.2953441921           0.7471454658
2.3570000000                    -0.1777816116           0.8129066023          -0.0216207696          -0.0194052134          -0.0216207696          -0.0194052134          -0.1879881303           0.7521864087
2.3600000000                    -0.0684838127           0.8049779398          -0.0262056197          -0.0242696470          -0.0262056197          -0.0242696470          -0.0534010363           0.7199364632
2.3630000000                     0.0592023988           0.7646935344          -0.0253045332          -0.0348578662          -0.0253045332          -0.0348578662           0.0941255544           0.6193571520
2.3660000000                     0.1898836464           0.6717398730          -0.0229999565          -0.0715832456          -0.0229999565          -0.0715832456           0.1921586374           0.4211386011
2.3690000000                     0.2937817654           0.5207884624          -0.0579234291          -0.1481845330          -0.0579234291          -0.1481845330           0.1343904917           0.1866671207
2.3720000000                     0.3281142188           0.3248181503          -0.1936660588          -0.2174494344          -0.1936660588          -0.2174494344          -0.0553403183           0.0864914265
2.3750000000                     0.2610983555           0.1306366246          -0.4097368113          -0.1705807121          -0.4097368113          -0.1705807121          -0.1745360972           0.1532654196
2.3780000000                     0.1315410421           0.0150850986          -0.5630910487           0.0351239571          -0.5630910487           0.0351239571          -0.1620279456           0.2012851123
2.3810000000                    -0.0036470084          -0.0290053524          -0.5759362711           0.2854468573          -0.5759362711           0.2854468573          -0.1513094327           0.1863916266
2.3840000000                    -0.1204296098          -0.0080946741          -0.4787959636           0.4959546840          -0.4787959636           0.4959546840          -0.1682626324           0.1711380660
2.3870000000                    -0.1877797749           0.0514628843          -0.3275356380           0.6339296743          -0.3275356380           0.6339296743          -0.1841905038           0.1785210375
2.3900000000                    -0.2062932301           0.1125099246          -0.1665662092           0.7088438355          -0.1665662092           0.7088438355          -0.1805973821           0.1949276054
2.3930000000                    -0.1894004500           0.1626052777          -0.0100439115           0.7397997444          -0.0100439115           0.7397997444          -0.1594747491           0.2061427252
2.3960000000                    -0.1429474254           0.1877136399           0.1366244990           0.7374106752           0.1366244990           0.7374106752          -0.1222130785           0.2066514088
2.3990000000                    -0.0793388405           0.1731447452           0.2678793266           0.7036312488           0.2678793266           0.7036312488          -0.0743916881           0.1821819306
2.4020000000                    -0.0488670812           0.1050264373           0.3694121838           0.6694749076           0.3694121838           0.6694749076          -0.0359850593           0.1231458487
2.4050000000                    -0.0554839472           0.0582120410           0.4954971784           0.6225927381           0.4954971784           0.6225927381          -0.0375652804           0.0598804373
2.4080000000                    -0.0635770977           0.0139161785           0.6062711125           0.5359344134           0.6062711125           0.5359344134          -0.0340912849          -0.0268707441
2.4110000000                    -0.0819197973          -0.0315264393           0.6845675025           0.4294936789           0.6845675025           0.4294936789          -0.0656939152          -0.0470194716
2.4140000000                    -0.1142728105          -0.0706495026           0.7382580859           0.3230987895           0.7382580859           0.3230987895          -0.0986039271          -0.0850838160
2.4170000000                    -0.1511374225          -0.0960489498           0.7753679594           0.2117423908           0.7753679594           0.2117423908          -0.1360543237          -0.1169304965
2.4200000000                    -0.1836389535          -0.1182072415           0.7838231790           0.0974675111           0.7838231790           0.0974675111          -0.1693566290          -0.1417411458
2.4230000000                    -0.2269200141          -0.1433264234           0.7672887562           0.0085454490           0.7672887562           0.0085454490          -0.2098182341          -0.1713413734
2.4260000000                    -0.2629540556          -0.1438905929           0.7412894788          -0.0775430680           0.7412894788          -0.0775430680          -0.2467138740          -0.1753384623
2.4290000000                    -0.2948472836          -0.1307414517           0.7115989106          -0.1633884809           0.7115989106          -0.1633884809          -0.2807067686          -0.1647515415
2.4320000000                    -0.3230000127          -0.1107447996           0.6760205225          -0.2446280266           0.6760205225          -0.2446280266          -0.3105605235          -0.1479094391
2.4350000000                    -0.3464498783          -0.0847512217           0.6346989579          -0.3213649057           0.6346989579          -0.3213649057          -0.3356231345          -0.1251751198
2.4380000000                    -0.3643947963          -0.0535632086           0.5869061402          -0.3939194336           0.5869061402          -0.3939194336          -0.3563660519          -0.0972108594
2.4410000000                    -0.3772743385          -0.0192541877           0.5334017795          -0.4586373646           0.5334017795          -0.4586373646          -0.3731172190          -0.0657160356
2.4440000000                    -0.3838484450           0.0173624192           0.4765407319          -0.5152776618           0.4765407319          -0.5152776618          -0.3836739796          -0.0309305035
2.4470000000                    -0.3825000540           0.0552684093           0.4175717828          -0.5654811885           0.4175717828          -0.5654811885          -0.3865561161           0.0058843777
2.4500000000                    -0.3747256882           0.0914833059           0.3568289656          -0.6094640499           0.3568289656          -0.6094640499          -0.3832495642           0.0419171550
2.4530000000                    -0.3583455797           0.1272432313           0.2946549304          -0.6479810700           0.2946549304          -0.6479810700          -0.3713403656           0.0783613439
2.4560000000                    -0.3291766433           0.1620733678           0.2300241227          -0.6837126181           0.2300241227          -0.6837126181          -0.3468010404           0.1148431084
2.4590000000                    -0.2842084099           0.1883069638           0.1532638076          -0.7259253357           0.1532638076          -0.7259253357          -0.3059019030           0.1461319632
2.4620000000                    -0.2344120857           0.2043904992           0.0656100437          -0.7632493042           0.0656100437          -0.7632493042          -0.2584489463           0.1680332808
2.4650000000                    -0.1813346159           0.2083871462          -0.0355410847          -0.7934453979          -0.0355410847          -0.7934453979          -0.2058611866           0.1786193391
2.4680000000                    -0.1277964603           0.2005872736          -0.1503638146          -0.8106590252          -0.1503638146          -0.8106590252          -0.1499250143           0.1773072943
2.4710000000                    -0.0797813876           0.1612613950          -0.2766435642          -0.7903219169          -0.2766435642          -0.7903219169          -0.0948793817           0.1442145181
2.4740000000                    -0.0465707697           0.1059827521          -0.4048173276          -0.7401069971          -0.4048173276          -0.7401069971          -0.0514774676           0.0920872758
2.4770000000                    -0.0335309753           0.0439840850          -0.5263198499          -0.6592609797          -0.5263198499          -0.6592609797          -0.0259187771           0.0300063514
2.4800000000                    -0.0415656302          -0.0149870375          -0.6319313423          -0.5486404872          -0.6319313423          -0.5486404872          -0.0209792927          -0.0345717889
2.4830000000                    -0.0687742974          -0.0623329133          -0.7114760074          -0.4132545711          -0.7114760074          -0.4132545711          -0.0362402680          -0.0926302699
2.4860000000                    -0.1072172531          -0.0894792962          -0.7606686304          -0.2614602906          -0.7606686304          -0.2614602906          -0.0666429564          -0.1356672756
2.4890000000                    -0.1464868568          -0.0934263178          -0.7771645303          -0.1003419126          -0.7771645303          -0.1003419126          -0.1031692290          -0.1601253403
2.4920000000                    -0.1753893981          -0.0754027626          -0.7588644330           0.0650629872          -0.7588644330           0.0650629872          -0.1376329477          -0.1648429516
2.4950000000                    -0.1831029683          -0.0407954768          -0.7025333441           0.2280108067          -0.7025333441           0.2280108067          -0.1603766789          -0.1524123805
2.4980000000                    -0.1597950144          -0.0027751168          -0.6025292502           0.3827019362          -0.6025292502           0.3827019362          -0.1633471897          -0.1322510614
2.5010000000                    -0.1066344631           0.0191877932          -0.4532121456           0.5131441974          -0.4532121456           0.5131441974          -0.1459954689          -0.1165298394
2.5040000000                    -0.0305568526           0.0156890879          -0.2555759336           0.5940152060          -0.2555759336           0.5940152060          -0.1153087876          -0.1161393132
2.5070000000                     0.0275091389          -0.0399493989          -0.0299063460           0.5948635072          -0.0299063460           0.5948635072          -0.0871138107          -0.1331550529
2.5100000000                     0.0524225052          -0.1135804590           0.1813465502           0.4997214385           0.1813465502           0.4997214385          -0.0701078188          -0.1534872924
2.5130000000                     0.0536973675          -0.1680900820           0.3274970449           0.3178410229           0.3274970449           0.3178410229          -0.0519922225          -0.1599841801
2.5160000000                     0.0601112756          -0.2001624766           0.3583639209           0.0910536622           0.3583639209           0.0910536622          -0.0039058947          -0.1628745236
2.5190000000                     0.0918046114          -0.2352230134           0.2555837441          -0.0951094573           0.2555837441          -0.0951094573           0.0750994766          -0.2017979225
2.5220000000                     0.1404638037          -0.3009317341           0.0878737915          -0.1505559364           0.0878737915          -0.1505559364           0.1480856710          -0.2987200723
2.5250000000                     0.1757979702          -0.4169712313          -0.0200792721          -0.0893951262          -0.0200792721          -0.0893951262           0.1760172837          -0.4426788441
2.5280000000                     0.1509189088          -0.5689433026          -0.0307332947          -0.0209371033          -0.0307332947          -0.0209371033           0.1341716153          -0.5977138251
2.5310000000                     0.0518963052          -0.6946803880          -0.0127588498           0.0007359822          -0.0127588498           0.0007359822           0.0304829524          -0.7139841743
2.5340000000                    -0.0718154381          -0.7619950474          -0.0037723384           0.0021965052          -0.0037723384           0.0021965052          -0.0892201489          -0.7745826834
2.5370000000                    -0.1868831475          -0.7874734921          -0.0011820946           0.0014566248          -0.0011820946           0.0014566248          -0.1981710228          -0.7964281913
2.5400000000                    -0.2869055807          -0.7892282022          -0.0004826060           0.0007651659          -0.0004826060           0.0007651659          -0.2909146330          -0.7971533200
2.5430000000                    -0.3726749070          -0.7771573843          -0.0004065840           0.0004472649          -0.0004065840           0.0004472649          -0.3703414979          -0.7867842544
2.5460000000                    -0.4460972467          -0.7568842731          -0.0001589656           0.0004496657          -0.0001589656           0.0004496657          -0.4388430646          -0.7690506702
2.5490000000                    -0.5089575663          -0.7314638306          -0.0001233075           0.0002531741          -0.0001233075           0.0002531741          -0.4981651758          -0.7466350430
2.5520000000                    -0.5629336092          -0.7018569633           0.0005265339           0.0004890219           0.0005265339           0.0004890219          -0.5489605234          -0.7201057845
2.5550000000                    -0.6086883941          -0.6709483615           0.0004820277           0.0002899794           0.0004820277           0.0002899794          -0.5914419329          -0.6928325523
2.5580000000                    -0.6461778283          -0.6405517672           0.0014289789           0.0009719233           0.0014289789           0.0009719233          -0.6271742606          -0.6663859339
2.5610000000                    -0.6791002902          -0.6104990943           0.0020519881           0.0005311927           0.0020519881           0.0005311927          -0.6582662610          -0.6394651084
2.5640000000                    -0.7076260669          -0.5816182349           0.0028041199           0.0008937907           0.0028041199           0.0008937907          -0.6854099566          -0.6134231800
2.5670000000                    -0.7311813437          -0.5529870994           0.0037249263           0.0007653635           0.0037249263           0.0007653635          -0.7087937052          -0.5884664064
2.5700000000                    -0.7518204612          -0.5260056414           0.0046115827           0.0008624044           0.0046115827           0.0008624044          -0.7290197599          -0.5644254419
2.5730000000                    -0.7703042547          -0.5000954973           0.0055417497           0.0005522409           0.0055417497           0.0005522409          -0.7463882191          -0.5411673516
2.5760000000                    -0.7858677293          -0.4754243953           0.0062827565           0.0004336026           0.0062827565           0.0004336026          -0.7619624639          -0.5188737321
